
**** 05/13/24 14:38:33 ***** PSpice 23.1.0 (6 March 2024) ***** ID# 0 ********

 ** Profile: "SCHEMATIC1-transient"  [ C:\Users\akshd\Documents\MAIN\Extras\CAD_Lab_self\E5-PSpiceFiles\SCHEMATIC1\transient.sim ] 


 ****     CIRCUIT DESCRIPTION


******************************************************************************




** Creating circuit file "transient.cir" 
** WARNING: THIS AUTOMATICALLY GENERATED FILE MAY BE OVERWRITTEN BY SUBSEQUENT SIMULATIONS

*Libraries: 
* Profile Libraries :
* Local Libraries :
* From [PSPICE NETLIST] section of C:\Users\akshd\AppData\Roaming\SPB_Data\cdssetup\OrCAD_PSpice\23.1.0\PSpice.ini file:
.lib "nom.lib" 

*Analysis directives: 
.TRAN  0 4ms 0 
.OPTIONS ADVCONV
.PROBE64 V(alias(*)) I(alias(*)) W(alias(*)) D(alias(*)) NOISE(alias(*)) 
.INC "..\SCHEMATIC1.net" 



**** INCLUDING SCHEMATIC1.net ****
* source E5
M_M1         N00260 N00281 0 0 MbreakN           
M_M2         N00260 N00288 0 0 MbreakN           
V_V1         N00281 0  
+PULSE 0 5 1m 1u 1u 2m 4m
V_V2         N00288 0  
+PULSE 0 5 2m 1u 1u 2m 4m
V_V3         N00274 0 5Vdc
R_R1         N00260 N00274  100k TC=0,0 

**** RESUMING transient.cir ****
.END

**** 05/13/24 14:38:33 ***** PSpice 23.1.0 (6 March 2024) ***** ID# 0 ********

 ** Profile: "SCHEMATIC1-transient"  [ C:\Users\akshd\Documents\MAIN\Extras\CAD_Lab_self\E5-PSpiceFiles\SCHEMATIC1\transient.sim ] 


 ****     MOSFET MODEL PARAMETERS


******************************************************************************




               MbreakN         
               NMOS            
       LEVEL    1            
           L  100.000000E-06 
           W  100.000000E-06 
         VTO    0            
          KP   20.000000E-06 
       GAMMA    0            
         PHI     .6          
      LAMBDA    0            
          IS   10.000000E-15 
          JS    0            
          PB     .8          
        PBSW     .8          
          CJ    0            
        CJSW    0            
        CGSO    0            
        CGDO    0            
        CGBO    0            
         TOX    0            
          XJ    0            
       UCRIT   10.000000E+03 
      DIOMOD    1            
         VFB    0            
        LETA    0            
        WETA    0            
          U0    0            
        TEMP    0            
         VDD    5            
       XPART    0            


**** 05/13/24 14:38:33 ***** PSpice 23.1.0 (6 March 2024) ***** ID# 0 ********

 ** Profile: "SCHEMATIC1-transient"  [ C:\Users\akshd\Documents\MAIN\Extras\CAD_Lab_self\E5-PSpiceFiles\SCHEMATIC1\transient.sim ] 


 ****     INITIAL TRANSIENT SOLUTION       TEMPERATURE =   27.000 DEG C


******************************************************************************



 NODE   VOLTAGE     NODE   VOLTAGE     NODE   VOLTAGE     NODE   VOLTAGE


(N00260)    5.0000 (N00274)    5.0000 (N00281)    0.0000 (N00288)    0.0000 




    VOLTAGE SOURCE CURRENTS
    NAME         CURRENT

    V_V1         0.000E+00
    V_V2         0.000E+00
    V_V3        -1.002E-11

    TOTAL POWER DISSIPATION   5.01E-11  WATTS



          JOB CONCLUDED

**** 05/13/24 14:38:33 ***** PSpice 23.1.0 (6 March 2024) ***** ID# 0 ********

 ** Profile: "SCHEMATIC1-transient"  [ C:\Users\akshd\Documents\MAIN\Extras\CAD_Lab_self\E5-PSpiceFiles\SCHEMATIC1\transient.sim ] 


 ****     JOB STATISTICS SUMMARY


******************************************************************************



  Total job time (using Solver 1)   =         .11
